v2	Ix(U1:DRAIN)	Ix(U5:VDD)	Ix(U6:VDD)	Ix(U7:VDD)	Ix(U8:VDD)	Ix(U9:VDD)
0.000000000000000e+000	7.696864e-012	-7.710761e-012	-7.696867e-012	-7.715356e-012	-7.722765e-012	-7.751556e-012
1.000000000000000e-002	7.705421e-012	-7.722423e-012	-7.705421e-012	-7.728749e-012	-7.739482e-012	-7.778743e-012
2.000000000000000e-002	7.714800e-012	-7.735420e-012	-7.714798e-012	-7.744036e-012	-7.759370e-012	-7.812541e-012
3.000000000000000e-002	7.725024e-012	-7.749829e-012	-7.725022e-012	-7.761462e-012	-7.783078e-012	-7.854615e-012
4.000000000000000e-002	7.736121e-012	-7.765768e-012	-7.736112e-012	-7.781331e-012	-7.811446e-012	-7.907057e-012
5.000000000000000e-002	7.748124e-012	-7.783350e-012	-7.748117e-012	-7.804028e-012	-7.845515e-012	-7.972486e-012
6.000000000000001e-002	7.761077e-012	-7.802739e-012	-7.761070e-012	-7.830046e-012	-7.886603e-012	-8.054214e-012
7.000000000000001e-002	7.775038e-012	-7.824151e-012	-7.775033e-012	-7.860000e-012	-7.936386e-012	-8.156413e-012
8.000000000000000e-002	7.790087e-012	-7.847855e-012	-7.790081e-012	-7.894704e-012	-7.997007e-012	-8.284354e-012
9.000000000000000e-002	7.806336e-012	-7.874221e-012	-7.806329e-012	-7.935202e-012	-8.071158e-012	-8.444678e-012
9.999999999999999e-002	7.823938e-012	-7.903726e-012	-7.823932e-012	-7.982824e-012	-8.162286e-012	-8.645804e-012
1.100000000000000e-001	7.843096e-012	-7.937004e-012	-7.843092e-012	-8.039296e-012	-8.274749e-012	-8.898360e-012
1.200000000000000e-001	7.864084e-012	-7.974872e-012	-7.864081e-012	-8.106807e-012	-8.414084e-012	-9.215829e-012
1.300000000000000e-001	7.887264e-012	-8.018398e-012	-7.887263e-012	-8.188185e-012	-8.587308e-012	-9.615276e-012
1.400000000000000e-001	7.913111e-012	-8.068960e-012	-7.913117e-012	-8.287023e-012	-8.803330e-012	-1.011836e-011
1.500000000000000e-001	7.942248e-012	-8.128338e-012	-7.942257e-012	-8.407897e-012	-9.073456e-012	-1.075257e-011
1.600000000000000e-001	7.975482e-012	-8.198816e-012	-7.975499e-012	-8.556657e-012	-9.412026e-012	-1.155284e-011
1.700000000000000e-001	8.013858e-012	-8.283318e-012	-8.013880e-012	-8.740717e-012	-9.837261e-012	-1.256358e-011
1.800000000000000e-001	8.058722e-012	-8.385602e-012	-8.058751e-012	-8.969527e-012	-1.037230e-011	-1.384127e-011
1.900000000000000e-001	8.111806e-012	-8.510447e-012	-8.111842e-012	-9.255084e-012	-1.104656e-011	-1.545787e-011
2.000000000000000e-001	8.175327e-012	-8.663951e-012	-8.175373e-012	-9.612627e-012	-1.189746e-011	-1.750506e-011
2.100000000000001e-001	8.252119e-012	-8.853884e-012	-8.252172e-012	-1.006156e-011	-1.297261e-011	-2.009975e-011
2.200000000000001e-001	8.345797e-012	-9.090118e-012	-8.345867e-012	-1.062652e-011	-1.433267e-011	-2.339115e-011
2.300000000000001e-001	8.460966e-012	-9.385226e-012	-8.461043e-012	-1.133888e-011	-1.605495e-011	-2.756979e-011
2.400000000000001e-001	8.603478e-012	-9.755183e-012	-8.603571e-012	-1.223854e-011	-1.823803e-011	-3.287918e-011
2.500000000000001e-001	8.780768e-012	-1.022029e-011	-8.780877e-012	-1.337634e-011	-2.100774e-011	-3.963072e-011
2.600000000000001e-001	9.002278e-012	-1.080639e-011	-9.002403e-012	-1.481710e-011	-2.452478e-011	-4.822290e-011
2.700000000000001e-001	9.279994e-012	-1.154636e-011	-9.280137e-012	-1.664343e-011	-2.899454e-011	-5.916604e-011
2.800000000000001e-001	9.629137e-012	-1.248207e-011	-9.629298e-012	-1.896080e-011	-3.467966e-011	-7.311403e-011
2.900000000000001e-001	1.006904e-011	-1.366686e-011	-1.006923e-011	-2.190392e-011	-4.191627e-011	-9.090532e-011
3.000000000000001e-001	1.062429e-011	-1.516877e-011	-1.062449e-011	-2.564490e-011	-5.113477e-011	-1.136157e-010
3.100000000000001e-001	1.132614e-011	-1.707461e-011	-1.132636e-011	-3.040387e-011	-6.288668e-011	-1.426261e-010
3.200000000000001e-001	1.221440e-011	-1.949521e-011	-1.221465e-011	-3.646250e-011	-7.787907e-011	-1.797108e-010
3.300000000000001e-001	1.333977e-011	-2.257220e-011	-1.334003e-011	-4.418144e-011	-9.701907e-011	-2.271499e-010
3.400000000000001e-001	1.476688e-011	-2.648666e-011	-1.476716e-011	-5.402274e-011	-1.214711e-010	-2.878760e-010
3.500000000000001e-001	1.657816e-011	-3.147027e-011	-1.657845e-011	-6.657873e-011	-1.527306e-010	-3.656625e-010
3.600000000000002e-001	1.887886e-011	-3.781957e-011	-1.887916e-011	-8.260911e-011	-1.927195e-010	-4.653673e-010
3.700000000000002e-001	2.180335e-011	-4.591440e-011	-2.180367e-011	-1.030889e-010	-2.439086e-010	-5.932473e-010
3.800000000000002e-001	2.552340e-011	-5.624147e-011	-2.552373e-011	-1.292698e-010	-3.094762e-010	-7.573651e-010
3.900000000000002e-001	3.025857e-011	-6.942484e-011	-3.025891e-011	-1.627600e-010	-3.935127e-010	-9.681138e-010
4.000000000000002e-001	3.628974e-011	-8.626497e-011	-3.629008e-011	-2.056260e-010	-5.012839e-010	-1.238895e-009
4.100000000000002e-001	4.397633e-011	-1.077890e-010	-4.397668e-011	-2.605248e-010	-6.395718e-010	-1.586996e-009
4.200000000000002e-001	5.377848e-011	-1.353156e-010	-5.377881e-011	-3.308733e-010	-8.171132e-010	-2.034714e-009
4.300000000000002e-001	6.628541e-011	-1.705378e-010	-6.628573e-011	-4.210672e-010	-1.045166e-009	-2.610818e-009
4.400000000000002e-001	8.225187e-011	-2.156301e-010	-8.225216e-011	-5.367622e-010	-1.338236e-009	-3.352415e-009
4.500000000000002e-001	1.026447e-010	-2.733860e-010	-1.026449e-010	-6.852361e-010	-1.715017e-009	-4.307356e-009
4.600000000000002e-001	1.287026e-010	-3.473931e-010	-1.287027e-010	-8.758528e-010	-2.199592e-009	-5.537313e-009
4.700000000000003e-001	1.620120e-010	-4.422597e-010	-1.620120e-010	-1.120658e-009	-2.822976e-009	-7.121697e-009
4.800000000000003e-001	2.046047e-010	-5.639013e-010	-2.046043e-010	-1.435139e-009	-3.625080e-009	-9.162636e-009
4.900000000000003e-001	2.590805e-010	-7.199082e-010	-2.590797e-010	-1.839197e-009	-4.657215e-009	-1.179124e-008
5.000000000000002e-001	3.287641e-010	-9.200097e-010	-3.287624e-010	-2.358373e-009	-5.985247e-009	-1.517542e-008
5.100000000000002e-001	4.179009e-010	-1.176661e-009	-4.178979e-010	-3.025395e-009	-7.693553e-009	-1.952951e-008
5.200000000000002e-001	5.319034e-010	-1.505776e-009	-5.318981e-010	-3.882120e-009	-9.889936e-009	-2.512601e-008
5.300000000000003e-001	6.776552e-010	-1.927639e-009	-6.776463e-010	-4.981924e-009	-1.271162e-008	-3.230938e-008
5.400000000000003e-001	8.638842e-010	-2.468022e-009	-8.638694e-010	-6.392622e-009	-1.633246e-008	-4.151214e-008
5.500000000000003e-001	1.101612e-009	-3.159528e-009	-1.101588e-009	-8.199965e-009	-2.097138e-008	-5.327259e-008
5.600000000000003e-001	1.404688e-009	-4.043182e-009	-1.404648e-009	-1.051173e-008	-2.690195e-008	-6.825349e-008
5.700000000000003e-001	1.790399e-009	-5.170257e-009	-1.790335e-009	-1.346233e-008	-3.446268e-008	-8.726014e-008
5.800000000000003e-001	2.280158e-009	-6.604300e-009	-2.280056e-009	-1.721780e-008	-4.406740e-008	-1.112558e-007
5.900000000000003e-001	2.900232e-009	-8.423264e-009	-2.900071e-009	-2.198088e-008	-5.621467e-008	-1.413714e-007
6.000000000000003e-001	3.682477e-009	-1.072162e-008	-3.682228e-009	-2.799558e-008	-7.149457e-008	-1.789079e-007
6.100000000000003e-001	4.665022e-009	-1.361220e-008	-4.664642e-009	-3.555081e-008	-9.059116e-008	-2.253262e-007
6.200000000000003e-001	5.892818e-009	-1.722760e-008	-5.892249e-009	-4.498198e-008	-1.142789e-007	-2.822275e-007
6.300000000000003e-001	7.417992e-009	-2.172079e-008	-7.417161e-009	-5.667011e-008	-1.434116e-007	-3.513204e-007
6.400000000000004e-001	9.299931e-009	-2.726471e-008	-9.298746e-009	-7.103760e-008	-1.789041e-007	-4.343808e-007
6.500000000000004e-001	1.160505e-008	-3.405076e-008	-1.160341e-008	-8.854063e-008	-2.217079e-007	-5.332074e-007
6.600000000000004e-001	1.440628e-008	-4.228609e-008	-1.440406e-008	-1.096585e-007	-2.727835e-007	-6.495767e-007
6.700000000000004e-001	1.778224e-008	-5.218990e-008	-1.777933e-008	-1.348809e-007	-3.330725e-007	-7.852039e-007
6.800000000000004e-001	2.181622e-008	-6.398897e-008	-2.181252e-008	-1.646943e-007	-4.034739e-007	-9.417094e-007
6.900000000000004e-001	2.659508e-008	-7.791272e-008	-2.659049e-008	-1.995690e-007	-4.848258e-007	-1.120596e-006
7.000000000000004e-001	3.220800e-008	-9.418832e-008	-3.220246e-008	-2.399482e-007	-5.778934e-007	-1.323232e-006
7.100000000000004e-001	3.874531e-008	-1.130360e-007	-3.873879e-008	-2.862401e-007	-6.833643e-007	-1.550847e-006
7.200000000000004e-001	4.629735e-008	-1.346653e-007	-4.628984e-008	-3.388130e-007	-8.018478e-007	-1.804525e-006
7.300000000000004e-001	5.495345e-008	-1.592716e-007	-5.494496e-008	-3.979933e-007	-9.338779e-007	-2.085212e-006
7.400000000000004e-001	6.480097e-008	-1.870341e-007	-6.479154e-008	-4.640666e-007	-1.079919e-006	-2.393721e-006
7.500000000000004e-001	7.592455e-008	-2.181147e-007	-7.591424e-008	-5.372794e-007	-1.240373e-006	-2.730739e-006
7.600000000000005e-001	8.840543e-008	-2.526575e-007	-8.839429e-008	-6.178434e-007	-1.415582e-006	-3.096835e-006
7.700000000000005e-001	1.023209e-007	-2.907890e-007	-1.023090e-007	-7.059390e-007	-1.605841e-006	-3.492474e-006
7.800000000000005e-001	1.177440e-007	-3.326196e-007	-1.177314e-007	-8.017195e-007	-1.811396e-006	-3.918025e-006
7.900000000000005e-001	1.347431e-007	-3.782443e-007	-1.347299e-007	-9.053148e-007	-2.032456e-006	-4.373766e-006
8.000000000000005e-001	1.533820e-007	-4.277444e-007	-1.533682e-007	-1.016835e-006	-2.269191e-006	-4.859901e-006
8.100000000000005e-001	1.737196e-007	-4.811894e-007	-1.737053e-007	-1.136373e-006	-2.521741e-006	-5.376563e-006
8.200000000000005e-001	1.958102e-007	-5.386386e-007	-1.957954e-007	-1.264007e-006	-2.790218e-006	-5.923822e-006
8.300000000000005e-001	2.197035e-007	-6.001420e-007	-2.196882e-007	-1.399803e-006	-3.074706e-006	-6.501699e-006
8.400000000000005e-001	2.454448e-007	-6.657424e-007	-2.454291e-007	-1.543816e-006	-3.375269e-006	-7.110167e-006
8.500000000000005e-001	2.730753e-007	-7.354762e-007	-2.730592e-007	-1.696093e-006	-3.691947e-006	-7.749159e-006
8.600000000000005e-001	3.026323e-007	-8.093745e-007	-3.026158e-007	-1.856672e-006	-4.024766e-006	-8.418576e-006
8.700000000000006e-001	3.341496e-007	-8.874637e-007	-3.341326e-007	-2.025582e-006	-4.373732e-006	-9.118293e-006
8.800000000000006e-001	3.676576e-007	-9.697669e-007	-3.676402e-007	-2.202850e-006	-4.738838e-006	-9.848163e-006
8.900000000000006e-001	4.031837e-007	-1.056304e-006	-4.031658e-007	-2.388491e-006	-5.120064e-006	-1.060802e-005
9.000000000000006e-001	4.407525e-007	-1.147091e-006	-4.407341e-007	-2.582521e-006	-5.517378e-006	-1.139769e-005
9.100000000000006e-001	4.803863e-007	-1.242144e-006	-4.803674e-007	-2.784948e-006	-5.930737e-006	-1.221698e-005
9.200000000000006e-001	5.221050e-007	-1.341474e-006	-5.220856e-007	-2.995776e-006	-6.360091e-006	-1.306569e-005
9.300000000000006e-001	5.659266e-007	-1.445094e-006	-5.659066e-007	-3.215004e-006	-6.805380e-006	-1.394364e-005
9.400000000000006e-001	6.118672e-007	-1.553011e-006	-6.118466e-007	-3.442629e-006	-7.266537e-006	-1.485061e-005
9.500000000000006e-001	6.599412e-007	-1.665234e-006	-6.599200e-007	-3.678644e-006	-7.743492e-006	-1.578640e-005
9.600000000000006e-001	7.101618e-007	-1.781769e-006	-7.101400e-007	-3.923039e-006	-8.236166e-006	-1.675080e-005
9.700000000000006e-001	7.625407e-007	-1.902621e-006	-7.625182e-007	-4.175799e-006	-8.744480e-006	-1.774361e-005
9.800000000000007e-001	8.170883e-007	-2.027794e-006	-8.170651e-007	-4.436909e-006	-9.268348e-006	-1.876462e-005
9.900000000000007e-001	8.738141e-007	-2.157291e-006	-8.737903e-007	-4.706348e-006	-9.807683e-006	-1.981362e-005
1.000000000000001e+000	9.327267e-007	-2.291114e-006	-9.327021e-007	-4.984095e-006	-1.036239e-005	-2.089041e-005
1.010000000000001e+000	9.938334e-007	-2.429261e-006	-9.938079e-007	-5.270126e-006	-1.093239e-005	-2.199477e-005
1.020000000000001e+000	1.057141e-006	-2.571735e-006	-1.057115e-006	-5.564414e-006	-1.151759e-005	-2.312651e-005
1.030000000000001e+000	1.122656e-006	-2.718531e-006	-1.122629e-006	-5.866931e-006	-1.211788e-005	-2.428541e-005
1.040000000000001e+000	1.190383e-006	-2.869648e-006	-1.190355e-006	-6.177645e-006	-1.273318e-005	-2.547125e-005
1.050000000000001e+000	1.260326e-006	-3.025083e-006	-1.260298e-006	-6.496527e-006	-1.336339e-005	-2.668384e-005
1.060000000000001e+000	1.332491e-006	-3.184829e-006	-1.332462e-006	-6.823539e-006	-1.400843e-005	-2.792295e-005
1.070000000000001e+000	1.406881e-006	-3.348883e-006	-1.406850e-006	-7.158650e-006	-1.466818e-005	-2.918837e-005
1.080000000000001e+000	1.483497e-006	-3.517238e-006	-1.483466e-006	-7.501820e-006	-1.534257e-005	-3.047990e-005
1.090000000000001e+000	1.562344e-006	-3.689885e-006	-1.562312e-006	-7.853014e-006	-1.603150e-005	-3.179730e-005
1.100000000000001e+000	1.643423e-006	-3.866819e-006	-1.643390e-006	-8.212191e-006	-1.673487e-005	-3.314036e-005
1.110000000000001e+000	1.726736e-006	-4.048028e-006	-1.726702e-006	-8.579314e-006	-1.745260e-005	-3.450888e-005
1.120000000000001e+000	1.812284e-006	-4.233504e-006	-1.812248e-006	-8.954341e-006	-1.818458e-005	-3.590261e-005
1.130000000000001e+000	1.900067e-006	-4.423236e-006	-1.900031e-006	-9.337233e-006	-1.893073e-005	-3.732135e-005
1.140000000000001e+000	1.990087e-006	-4.617212e-006	-1.990050e-006	-9.727946e-006	-1.969096e-005	-3.876486e-005
1.150000000000001e+000	2.082344e-006	-4.815422e-006	-2.082305e-006	-1.012644e-005	-2.046517e-005	-4.023293e-005
1.160000000000001e+000	2.176836e-006	-5.017854e-006	-2.176797e-006	-1.053268e-005	-2.125327e-005	-4.172532e-005
1.170000000000001e+000	2.273565e-006	-5.224493e-006	-2.273524e-006	-1.094661e-005	-2.205518e-005	-4.324183e-005
1.180000000000001e+000	2.372528e-006	-5.435326e-006	-2.372487e-006	-1.136820e-005	-2.287079e-005	-4.478221e-005
1.190000000000001e+000	2.473726e-006	-5.650340e-006	-2.473683e-006	-1.179740e-005	-2.370002e-005	-4.634623e-005
1.200000000000001e+000	2.577156e-006	-5.869520e-006	-2.577113e-006	-1.223417e-005	-2.454278e-005	-4.793368e-005
1.210000000000001e+000	2.682817e-006	-6.092850e-006	-2.682773e-006	-1.267848e-005	-2.539897e-005	-4.954433e-005
1.220000000000001e+000	2.790708e-006	-6.320317e-006	-2.790662e-006	-1.313027e-005	-2.626850e-005	-5.117795e-005
1.230000000000001e+000	2.900825e-006	-6.551903e-006	-2.900778e-006	-1.358951e-005	-2.715129e-005	-5.283430e-005
1.240000000000001e+000	3.013167e-006	-6.787593e-006	-3.013119e-006	-1.405615e-005	-2.804724e-005	-5.451317e-005
1.250000000000001e+000	3.127732e-006	-7.027371e-006	-3.127683e-006	-1.453016e-005	-2.895626e-005	-5.621432e-005
1.260000000000001e+000	3.244515e-006	-7.271220e-006	-3.244465e-006	-1.501149e-005	-2.987825e-005	-5.793753e-005
1.270000000000001e+000	3.363515e-006	-7.519123e-006	-3.363464e-006	-1.550011e-005	-3.081313e-005	-5.968257e-005
1.280000000000001e+000	3.484729e-006	-7.771065e-006	-3.484676e-006	-1.599596e-005	-3.176081e-005	-6.144922e-005
1.290000000000001e+000	3.608152e-006	-8.027026e-006	-3.608098e-006	-1.649902e-005	-3.272118e-005	-6.323726e-005
1.300000000000001e+000	3.733781e-006	-8.286990e-006	-3.733727e-006	-1.700925e-005	-3.369417e-005	-6.504646e-005
1.310000000000001e+000	3.861614e-006	-8.550940e-006	-3.861558e-006	-1.752659e-005	-3.467967e-005	-6.687659e-005
1.320000000000001e+000	3.991644e-006	-8.818859e-006	-3.991588e-006	-1.805102e-005	-3.567759e-005	-6.872743e-005
1.330000000000001e+000	4.123870e-006	-9.090728e-006	-4.123812e-006	-1.858250e-005	-3.668785e-005	-7.059876e-005
1.340000000000001e+000	4.258286e-006	-9.366530e-006	-4.258227e-006	-1.912098e-005	-3.771035e-005	-7.249037e-005
1.350000000000001e+000	4.394888e-006	-9.646249e-006	-4.394828e-006	-1.966643e-005	-3.874499e-005	-7.440204e-005
1.360000000000001e+000	4.533672e-006	-9.929866e-006	-4.533611e-006	-2.021881e-005	-3.979169e-005	-7.633355e-005
1.370000000000001e+000	4.674633e-006	-1.021736e-005	-4.674571e-006	-2.077807e-005	-4.085035e-005	-7.828468e-005
1.380000000000001e+000	4.817766e-006	-1.050872e-005	-4.817703e-006	-2.134419e-005	-4.192089e-005	-8.025521e-005
1.390000000000001e+000	4.963067e-006	-1.080393e-005	-4.963003e-006	-2.191713e-005	-4.300320e-005	-8.224494e-005
1.400000000000001e+000	5.110530e-006	-1.110297e-005	-5.110465e-006	-2.249684e-005	-4.409720e-005	-8.425365e-005
1.410000000000001e+000	5.260151e-006	-1.140582e-005	-5.260085e-006	-2.308329e-005	-4.520279e-005	-8.628114e-005
1.420000000000001e+000	5.411924e-006	-1.171246e-005	-5.411857e-006	-2.367644e-005	-4.631989e-005	-8.832721e-005
1.430000000000001e+000	5.565844e-006	-1.202288e-005	-5.565776e-006	-2.427626e-005	-4.744840e-005	-9.039162e-005
1.440000000000001e+000	5.721905e-006	-1.233706e-005	-5.721836e-006	-2.488270e-005	-4.858822e-005	-9.247420e-005
1.450000000000001e+000	5.880103e-006	-1.265498e-005	-5.880033e-006	-2.549573e-005	-4.973928e-005	-9.457472e-005
1.460000000000001e+000	6.040431e-006	-1.297663e-005	-6.040360e-006	-2.611531e-005	-5.090148e-005	-9.669300e-005
1.470000000000001e+000	6.202885e-006	-1.330199e-005	-6.202813e-006	-2.674141e-005	-5.207472e-005	-9.882883e-005
1.480000000000001e+000	6.367457e-006	-1.363105e-005	-6.367385e-006	-2.737398e-005	-5.325893e-005	-1.009820e-004
1.490000000000001e+000	6.534144e-006	-1.396378e-005	-6.534071e-006	-2.801300e-005	-5.445399e-005	-1.031523e-004
1.500000000000001e+000	6.702938e-006	-1.430018e-005	-6.702864e-006	-2.865842e-005	-5.565985e-005	-1.053397e-004
1.510000000000001e+000	6.873834e-006	-1.464021e-005	-6.873759e-006	-2.931020e-005	-5.687638e-005	-1.075437e-004
1.520000000000001e+000	7.046826e-006	-1.498388e-005	-7.046750e-006	-2.996832e-005	-5.810352e-005	-1.097644e-004
1.530000000000001e+000	7.221909e-006	-1.533116e-005	-7.221832e-006	-3.063273e-005	-5.934117e-005	-1.120014e-004
1.540000000000001e+000	7.399075e-006	-1.568204e-005	-7.398998e-006	-3.130340e-005	-6.058925e-005	-1.142547e-004
1.550000000000001e+000	7.578320e-006	-1.603651e-005	-7.578241e-006	-3.198028e-005	-6.184766e-005	-1.165239e-004
1.560000000000001e+000	7.759637e-006	-1.639453e-005	-7.759557e-006	-3.266335e-005	-6.311632e-005	-1.188090e-004
1.570000000000001e+000	7.943019e-006	-1.675611e-005	-7.942939e-006	-3.335257e-005	-6.439514e-005	-1.211098e-004
1.580000000000001e+000	8.128462e-006	-1.712123e-005	-8.128381e-006	-3.404789e-005	-6.568404e-005	-1.234260e-004
1.590000000000001e+000	8.315958e-006	-1.748986e-005	-8.315876e-006	-3.474930e-005	-6.698293e-005	-1.257575e-004
1.600000000000001e+000	8.505502e-006	-1.786200e-005	-8.505419e-006	-3.545673e-005	-6.829172e-005	-1.281042e-004
1.610000000000001e+000	8.697088e-006	-1.823763e-005	-8.697004e-006	-3.617018e-005	-6.961034e-005	-1.304657e-004
1.620000000000001e+000	8.890708e-006	-1.861673e-005	-8.890624e-006	-3.688958e-005	-7.093869e-005	-1.328421e-004
1.630000000000001e+000	9.086358e-006	-1.899930e-005	-9.086272e-006	-3.761491e-005	-7.227669e-005	-1.352331e-004
1.640000000000001e+000	9.284030e-006	-1.938530e-005	-9.283944e-006	-3.834614e-005	-7.362426e-005	-1.376384e-004
1.650000000000001e+000	9.483720e-006	-1.977474e-005	-9.483632e-006	-3.908322e-005	-7.498131e-005	-1.400581e-004
1.660000000000001e+000	9.685419e-006	-2.016760e-005	-9.685332e-006	-3.982613e-005	-7.634777e-005	-1.424918e-004
1.670000000000001e+000	9.889123e-006	-2.056385e-005	-9.889035e-006	-4.057482e-005	-7.772355e-005	-1.449395e-004
1.680000000000001e+000	1.009483e-005	-2.096349e-005	-1.009474e-005	-4.132925e-005	-7.910856e-005	-1.474009e-004
1.690000000000001e+000	1.030252e-005	-2.136651e-005	-1.030243e-005	-4.208941e-005	-8.050274e-005	-1.498760e-004
1.700000000000001e+000	1.051220e-005	-2.177288e-005	-1.051211e-005	-4.285524e-005	-8.190599e-005	-1.523644e-004
1.710000000000001e+000	1.072386e-005	-2.218259e-005	-1.072377e-005	-4.362671e-005	-8.331825e-005	-1.548662e-004
1.720000000000001e+000	1.093749e-005	-2.259563e-005	-1.093740e-005	-4.440379e-005	-8.473942e-005	-1.573812e-004
1.730000000000001e+000	1.115309e-005	-2.301198e-005	-1.115300e-005	-4.518644e-005	-8.616943e-005	-1.599091e-004
1.740000000000001e+000	1.137066e-005	-2.343164e-005	-1.137056e-005	-4.597463e-005	-8.760820e-005	-1.624498e-004
1.750000000000001e+000	1.159017e-005	-2.385457e-005	-1.159008e-005	-4.676832e-005	-8.905566e-005	-1.650032e-004
