v2	Ix(U1:DRAIN)	Ix(U5:VDD)	Ix(U6:VDD)	Ix(U7:VDD)	Ix(U8:VDD)	Ix(U9:VDD)
0.000000000000000e+000	7.786239e-012	-7.850521e-012	-7.786240e-012	-7.887771e-012	-7.981970e-012	-8.325628e-012
1.000000000000000e-002	7.800586e-012	-7.874748e-012	-7.800585e-012	-7.922711e-012	-8.048283e-012	-8.496373e-012
2.000000000000000e-002	7.815745e-012	-7.901056e-012	-7.815734e-012	-7.962641e-012	-8.128940e-012	-8.710917e-012
3.000000000000000e-002	7.831740e-012	-7.929719e-012	-7.831731e-012	-8.008622e-012	-8.227544e-012	-8.980811e-012
4.000000000000000e-002	7.848644e-012	-7.961093e-012	-7.848634e-012	-8.062004e-012	-8.348701e-012	-9.320743e-012
5.000000000000000e-002	7.866547e-012	-7.995646e-012	-7.866541e-012	-8.124519e-012	-8.498233e-012	-9.749394e-012
6.000000000000001e-002	7.885572e-012	-8.033977e-012	-7.885567e-012	-8.198389e-012	-8.683558e-012	-1.029054e-011
7.000000000000001e-002	7.905883e-012	-8.076874e-012	-7.905878e-012	-8.286450e-012	-8.914070e-012	-1.097446e-011
8.000000000000000e-002	7.927698e-012	-8.125356e-012	-7.927695e-012	-8.392309e-012	-9.201714e-012	-1.183978e-011
9.000000000000000e-002	7.951299e-012	-8.180720e-012	-7.951298e-012	-8.520559e-012	-9.561654e-012	-1.293580e-011
9.999999999999999e-002	7.977056e-012	-8.244632e-012	-7.977061e-012	-8.677040e-012	-1.001316e-011	-1.432548e-011
1.100000000000000e-001	8.005442e-012	-8.319219e-012	-8.005450e-012	-8.869152e-012	-1.058074e-011	-1.608934e-011
1.200000000000000e-001	8.037066e-012	-8.407205e-012	-8.037081e-012	-9.106324e-012	-1.129557e-011	-1.833040e-011
1.300000000000000e-001	8.072707e-012	-8.512030e-012	-8.072729e-012	-9.400473e-012	-1.219735e-011	-2.118060e-011
1.400000000000000e-001	8.113357e-012	-8.638089e-012	-8.113387e-012	-9.766742e-012	-1.333665e-011	-2.480905e-011
1.500000000000000e-001	8.160279e-012	-8.790959e-012	-8.160316e-012	-1.022434e-011	-1.477798e-011	-2.943270e-011
1.600000000000000e-001	8.215074e-012	-8.977702e-012	-8.215120e-012	-1.079767e-011	-1.660363e-011	-3.533003e-011
1.700000000000000e-001	8.279771e-012	-9.207263e-012	-8.279827e-012	-1.151768e-011	-1.891870e-011	-4.285887e-011
1.800000000000000e-001	8.356938e-012	-9.490993e-012	-8.357007e-012	-1.242371e-011	-2.185751e-011	-5.247928e-011
1.900000000000000e-001	8.449822e-012	-9.843242e-012	-8.449905e-012	-1.356581e-011	-2.559184e-011	-6.478327e-011
2.000000000000000e-001	8.562516e-012	-1.028220e-011	-8.562617e-012	-1.500760e-011	-3.034158e-011	-8.053316e-011
2.100000000000001e-001	8.700186e-012	-1.083087e-011	-8.700299e-012	-1.683013e-011	-3.638837e-011	-1.007113e-010
2.200000000000001e-001	8.869338e-012	-1.151845e-011	-8.869469e-012	-1.913665e-011	-4.409320e-011	-1.265845e-010
2.300000000000001e-001	9.078175e-012	-1.238193e-011	-9.078328e-012	-2.205881e-011	-5.391912e-011	-1.597876e-010
2.400000000000001e-001	9.337024e-012	-1.346820e-011	-9.337194e-012	-2.576458e-011	-6.646049e-011	-2.024317e-010
2.500000000000001e-001	9.658899e-012	-1.483683e-011	-9.659089e-012	-3.046844e-011	-8.248076e-011	-2.572449e-010
2.600000000000001e-001	1.006020e-011	-1.656344e-011	-1.006041e-011	-3.644443e-011	-1.029612e-010	-3.277549e-010
2.700000000000001e-001	1.056159e-011	-1.874417e-011	-1.056183e-011	-4.404293e-011	-1.291639e-010	-4.185262e-010
2.800000000000001e-001	1.118917e-011	-2.150128e-011	-1.118943e-011	-5.371222e-011	-1.627131e-010	-5.354689e-010
2.900000000000001e-001	1.197586e-011	-2.499043e-011	-1.197615e-011	-6.602620e-011	-2.057008e-010	-6.862399e-010
3.000000000000001e-001	1.296326e-011	-2.940980e-011	-1.296357e-011	-8.172008e-011	-2.608225e-010	-8.807647e-010
3.100000000000001e-001	1.420395e-011	-3.501203e-011	-1.420429e-011	-1.017363e-010	-3.315539e-010	-1.131918e-009
3.200000000000001e-001	1.576448e-011	-4.211926e-011	-1.576484e-011	-1.272835e-010	-4.223793e-010	-1.456407e-009
3.300000000000001e-001	1.772906e-011	-5.114256e-011	-1.772944e-011	-1.599131e-010	-5.390873e-010	-1.875929e-009
3.400000000000001e-001	2.020439e-011	-6.260679e-011	-2.020479e-011	-2.016170e-010	-6.891547e-010	-2.418666e-009
3.500000000000001e-001	2.332569e-011	-7.718247e-011	-2.332611e-011	-2.549548e-010	-8.822442e-010	-3.121251e-009
3.600000000000002e-001	2.726449e-011	-9.572668e-011	-2.726492e-011	-3.232165e-010	-1.130849e-009	-4.031312e-009
3.700000000000002e-001	3.223844e-011	-1.193356e-010	-3.223888e-011	-4.106341e-010	-1.451130e-009	-5.210800e-009
3.800000000000002e-001	3.852391e-011	-1.494118e-010	-3.852436e-011	-5.226535e-010	-1.864004e-009	-6.740311e-009
3.900000000000002e-001	4.647199e-011	-1.877511e-010	-4.647245e-011	-6.662860e-010	-2.396551e-009	-8.724724e-009
4.000000000000002e-001	5.652893e-011	-2.366535e-010	-5.652939e-011	-8.505624e-010	-3.083844e-009	-1.130052e-008
4.100000000000002e-001	6.926217e-011	-2.990663e-010	-6.926264e-011	-1.087120e-009	-3.971325e-009	-1.464529e-008
4.200000000000002e-001	8.539362e-011	-3.787677e-010	-8.539408e-011	-1.390959e-009	-5.117880e-009	-1.899004e-008
4.300000000000002e-001	1.058420e-010	-4.806031e-010	-1.058424e-010	-1.781422e-009	-6.599830e-009	-2.463513e-008
4.400000000000002e-001	1.317769e-010	-6.107879e-010	-1.317773e-010	-2.283458e-009	-8.516089e-009	-3.197073e-008
4.500000000000002e-001	1.646877e-010	-7.772976e-010	-1.646881e-010	-2.929248e-009	-1.099484e-008	-4.150307e-008
4.600000000000002e-001	2.064717e-010	-9.903671e-010	-2.064718e-010	-3.760311e-009	-1.420216e-008	-5.388779e-008
4.700000000000003e-001	2.595453e-010	-1.263132e-009	-2.595452e-010	-4.830205e-009	-1.835304e-008	-6.997197e-008
4.800000000000003e-001	3.269870e-010	-1.612452e-009	-3.269865e-010	-6.208004e-009	-2.372564e-008	-9.084652e-008
4.900000000000003e-001	4.127173e-010	-2.059955e-009	-4.127163e-010	-7.982756e-009	-3.067931e-008	-1.179103e-007
5.000000000000002e-001	5.217281e-010	-2.633384e-009	-5.217259e-010	-1.026917e-008	-3.967752e-008	-1.529470e-007
5.100000000000002e-001	6.603709e-010	-3.368293e-009	-6.603670e-010	-1.321489e-008	-5.131655e-008	-1.982147e-007
5.200000000000002e-001	8.367206e-010	-4.310208e-009	-8.367139e-010	-1.700962e-008	-6.636112e-008	-2.565456e-007
5.300000000000003e-001	1.061030e-009	-5.517339e-009	-1.061019e-009	-2.189669e-008	-8.578775e-008	-3.314519e-007
5.400000000000003e-001	1.346297e-009	-7.063982e-009	-1.346278e-009	-2.818737e-008	-1.108365e-007	-4.272274e-007
5.500000000000003e-001	1.708957e-009	-9.044718e-009	-1.708927e-009	-3.627844e-008	-1.430711e-007	-5.490322e-007
5.600000000000003e-001	2.169740e-009	-1.157958e-008	-2.169691e-009	-4.667349e-008	-1.844451e-007	-7.029433e-007
5.700000000000003e-001	2.754687e-009	-1.482028e-008	-2.754609e-009	-6.000796e-008	-2.373712e-007	-8.959516e-007
5.800000000000003e-001	3.496364e-009	-1.895757e-008	-3.496241e-009	-7.707794e-008	-3.047867e-007	-1.135890e-006
5.900000000000003e-001	4.435263e-009	-2.422980e-008	-4.435072e-009	-9.887172e-008	-3.902047e-007	-1.431285e-006
6.000000000000003e-001	5.621382e-009	-3.093250e-008	-5.621090e-009	-1.266026e-007	-4.977374e-007	-1.791137e-006
6.100000000000003e-001	7.115963e-009	-3.942871e-008	-7.115522e-009	-1.617400e-007	-6.320773e-007	-2.224652e-006
6.200000000000003e-001	8.993314e-009	-5.015967e-008	-8.992664e-009	-2.060346e-007	-7.984212e-007	-2.740943e-006
6.300000000000003e-001	1.134266e-008	-6.365506e-008	-1.134172e-008	-2.615323e-007	-1.002332e-006	-3.348747e-006
6.400000000000004e-001	1.426994e-008	-8.054203e-008	-1.426862e-008	-3.305713e-007	-1.249543e-006	-4.056183e-006
6.500000000000004e-001	1.789941e-008	-1.015520e-007	-1.789762e-008	-4.157566e-007	-1.545724e-006	-4.870553e-006
6.600000000000004e-001	2.237511e-008	-1.275242e-007	-2.237273e-008	-5.199091e-007	-1.896237e-006	-5.798217e-006
6.700000000000004e-001	2.786198e-008	-1.594054e-007	-2.785892e-008	-6.459904e-007	-2.305931e-006	-6.844523e-006
6.800000000000004e-001	3.454675e-008	-1.982450e-007	-3.454296e-008	-7.970073e-007	-2.778985e-006	-8.013792e-006
6.900000000000004e-001	4.263861e-008	-2.451849e-007	-4.263406e-008	-9.759057e-007	-3.318829e-006	-9.309346e-006
7.000000000000004e-001	5.236939e-008	-3.014439e-007	-5.236412e-008	-1.185465e-006	-3.928140e-006	-1.073356e-005
7.100000000000004e-001	6.399368e-008	-3.682979e-007	-6.398776e-008	-1.428207e-006	-4.608880e-006	-1.228797e-005
7.200000000000004e-001	7.778831e-008	-4.470542e-007	-7.778190e-008	-1.706322e-006	-5.362385e-006	-1.397334e-005
7.300000000000004e-001	9.405162e-008	-5.390233e-007	-9.404491e-008	-2.021627e-006	-6.189454e-006	-1.578979e-005
7.400000000000004e-001	1.131024e-007	-6.454895e-007	-1.130956e-007	-2.375558e-006	-7.090448e-006	-1.773695e-005
7.500000000000004e-001	1.352781e-007	-7.676815e-007	-1.352715e-007	-2.769174e-006	-8.065379e-006	-1.981399e-005
7.600000000000005e-001	1.609337e-007	-9.067458e-007	-1.609275e-007	-3.203201e-006	-9.113985e-006	-2.201981e-005
7.700000000000005e-001	1.904387e-007	-1.063726e-006	-1.904331e-007	-3.678074e-006	-1.023581e-005	-2.435313e-005
7.800000000000005e-001	2.241754e-007	-1.239545e-006	-2.241705e-007	-4.193988e-006	-1.143023e-005	-2.681251e-005
7.900000000000005e-001	2.625357e-007	-1.434996e-006	-2.625316e-007	-4.750956e-006	-1.269654e-005	-2.939649e-005
8.000000000000005e-001	3.059181e-007	-1.650740e-006	-3.059147e-007	-5.348842e-006	-1.403394e-005	-3.210362e-005
8.100000000000005e-001	3.547245e-007	-1.887303e-006	-3.547216e-007	-5.987412e-006	-1.544163e-005	-3.493248e-005
8.200000000000005e-001	4.093565e-007	-2.145089e-006	-4.093541e-007	-6.666354e-006	-1.691876e-005	-3.788168e-005
8.300000000000005e-001	4.702125e-007	-2.424384e-006	-4.702102e-007	-7.385308e-006	-1.846448e-005	-4.094990e-005
8.400000000000005e-001	5.376839e-007	-2.725371e-006	-5.376814e-007	-8.143880e-006	-2.007797e-005	-4.413588e-005
8.500000000000005e-001	6.121522e-007	-3.048146e-006	-6.121493e-007	-8.941655e-006	-2.175843e-005	-4.743839e-005
8.600000000000005e-001	6.939862e-007	-3.392729e-006	-6.939826e-007	-9.778210e-006	-2.350506e-005	-5.085621e-005
8.700000000000006e-001	7.835396e-007	-3.759079e-006	-7.835350e-007	-1.065311e-005	-2.531712e-005	-5.438818e-005
8.800000000000006e-001	8.811490e-007	-4.147108e-006	-8.811430e-007	-1.156593e-005	-2.719390e-005	-5.803309e-005
8.900000000000006e-001	9.871318e-007	-4.556686e-006	-9.871238e-007	-1.251623e-005	-2.913472e-005	-6.178977e-005
9.000000000000006e-001	1.101785e-006	-4.987661e-006	-1.101775e-006	-1.350359e-005	-3.113893e-005	-6.565700e-005
9.100000000000006e-001	1.225385e-006	-5.439854e-006	-1.225372e-006	-1.452759e-005	-3.320592e-005	-6.963356e-005
9.200000000000006e-001	1.358185e-006	-5.913078e-006	-1.358169e-006	-1.558781e-005	-3.533509e-005	-7.371818e-005
9.300000000000006e-001	1.500419e-006	-6.407131e-006	-1.500399e-006	-1.668385e-005	-3.752587e-005	-7.790959e-005
9.400000000000006e-001	1.652298e-006	-6.921812e-006	-1.652273e-006	-1.781532e-005	-3.977772e-005	-8.220646e-005
9.500000000000006e-001	1.814011e-006	-7.456913e-006	-1.813981e-006	-1.898182e-005	-4.209011e-005	-8.660746e-005
9.600000000000006e-001	1.985728e-006	-8.012229e-006	-1.985692e-006	-2.018299e-005	-4.446251e-005	-9.111121e-005
9.700000000000006e-001	2.167599e-006	-8.587556e-006	-2.167556e-006	-2.141846e-005	-4.689441e-005	-9.571632e-005
9.800000000000007e-001	2.359756e-006	-9.182693e-006	-2.359707e-006	-2.268788e-005	-4.938529e-005	-1.004214e-004
9.900000000000007e-001	2.562314e-006	-9.797444e-006	-2.562257e-006	-2.399093e-005	-5.193464e-005	-1.052249e-004
1.000000000000001e+000	2.775372e-006	-1.043162e-005	-2.775307e-006	-2.532727e-005	-5.454195e-005	-1.101255e-004
1.010000000000001e+000	2.999014e-006	-1.108502e-005	-2.998940e-006	-2.669660e-005	-5.720671e-005	-1.151217e-004
1.020000000000001e+000	3.233311e-006	-1.175747e-005	-3.233227e-006	-2.809861e-005	-5.992838e-005	-1.202120e-004
1.030000000000001e+000	3.478320e-006	-1.244879e-005	-3.478227e-006	-2.953301e-005	-6.270644e-005	-1.253948e-004
1.040000000000001e+000	3.734089e-006	-1.315881e-005	-3.733985e-006	-3.099954e-005	-6.554034e-005	-1.306689e-004
1.050000000000001e+000	4.000654e-006	-1.388735e-005	-4.000539e-006	-3.249792e-005	-6.842955e-005	-1.360325e-004
1.060000000000001e+000	4.278043e-006	-1.463424e-005	-4.277917e-006	-3.402790e-005	-7.137351e-005	-1.414844e-004
1.070000000000001e+000	4.566275e-006	-1.539934e-005	-4.566136e-006	-3.558922e-005	-7.437164e-005	-1.470229e-004
1.080000000000001e+000	4.865359e-006	-1.618246e-005	-4.865208e-006	-3.718165e-005	-7.742338e-005	-1.526466e-004
1.090000000000001e+000	5.175302e-006	-1.698348e-005	-5.175137e-006	-3.880493e-005	-8.052817e-005	-1.583540e-004
1.100000000000001e+000	5.496099e-006	-1.780223e-005	-5.495921e-006	-4.045886e-005	-8.368540e-005	-1.641437e-004
1.110000000000001e+000	5.827743e-006	-1.863857e-005	-5.827551e-006	-4.214319e-005	-8.689449e-005	-1.700142e-004
1.120000000000001e+000	6.170221e-006	-1.949236e-005	-6.170014e-006	-4.385771e-005	-9.015485e-005	-1.759641e-004
1.130000000000001e+000	6.523513e-006	-2.036347e-005	-6.523291e-006	-4.560219e-005	-9.346586e-005	-1.819920e-004
1.140000000000001e+000	6.887597e-006	-2.125177e-005	-6.887360e-006	-4.737642e-005	-9.682694e-005	-1.880964e-004
1.150000000000001e+000	7.262446e-006	-2.215712e-005	-7.262193e-006	-4.918017e-005	-1.002375e-004	-1.942760e-004
1.160000000000001e+000	7.648028e-006	-2.307942e-005	-7.647761e-006	-5.101322e-005	-1.036968e-004	-2.005295e-004
1.170000000000001e+000	8.044311e-006	-2.401853e-005	-8.044028e-006	-5.287537e-005	-1.072044e-004	-2.068553e-004
1.180000000000001e+000	8.451258e-006	-2.497435e-005	-8.450957e-006	-5.476639e-005	-1.107596e-004	-2.132523e-004
1.190000000000001e+000	8.868828e-006	-2.594677e-005	-8.868512e-006	-5.668607e-005	-1.143618e-004	-2.197191e-004
1.200000000000001e+000	9.296979e-006	-2.693568e-005	-9.296647e-006	-5.863418e-005	-1.180105e-004	-2.262544e-004
1.210000000000001e+000	9.735668e-006	-2.794099e-005	-9.735320e-006	-6.061051e-005	-1.217049e-004	-2.328569e-004
1.220000000000001e+000	1.018485e-005	-2.896258e-005	-1.018448e-005	-6.261483e-005	-1.254444e-004	-2.395254e-004
1.230000000000001e+000	1.064447e-005	-3.000037e-005	-1.064409e-005	-6.464693e-005	-1.292286e-004	-2.462586e-004
1.240000000000001e+000	1.111450e-005	-3.105426e-005	-1.111410e-005	-6.670657e-005	-1.330567e-004	-2.530553e-004
1.250000000000001e+000	1.159487e-005	-3.212416e-005	-1.159445e-005	-6.879352e-005	-1.369281e-004	-2.599143e-004
1.260000000000001e+000	1.208553e-005	-3.320998e-005	-1.208510e-005	-7.090757e-005	-1.408424e-004	-2.668344e-004
1.270000000000001e+000	1.258644e-005	-3.431164e-005	-1.258600e-005	-7.304848e-005	-1.447988e-004	-2.738145e-004
1.280000000000001e+000	1.309754e-005	-3.542905e-005	-1.309708e-005	-7.521602e-005	-1.487968e-004	-2.808534e-004
1.290000000000001e+000	1.361879e-005	-3.656213e-005	-1.361831e-005	-7.740995e-005	-1.528357e-004	-2.879500e-004
1.300000000000001e+000	1.415012e-005	-3.771079e-005	-1.414963e-005	-7.963005e-005	-1.569152e-004	-2.951033e-004
1.310000000000001e+000	1.469150e-005	-3.887495e-005	-1.469099e-005	-8.187608e-005	-1.610344e-004	-3.023120e-004
1.320000000000001e+000	1.524285e-005	-4.005453e-005	-1.524233e-005	-8.414780e-005	-1.651929e-004	-3.095752e-004
1.330000000000001e+000	1.580414e-005	-4.124945e-005	-1.580361e-005	-8.644497e-005	-1.693901e-004	-3.168918e-004
1.340000000000001e+000	1.637531e-005	-4.245963e-005	-1.637476e-005	-8.876735e-005	-1.736254e-004	-3.242609e-004
1.350000000000001e+000	1.695631e-005	-4.368498e-005	-1.695574e-005	-9.111471e-005	-1.778984e-004	-3.316813e-004
1.360000000000001e+000	1.754708e-005	-4.492544e-005	-1.754650e-005	-9.348681e-005	-1.822084e-004	-3.391520e-004
1.370000000000001e+000	1.814758e-005	-4.618091e-005	-1.814699e-005	-9.588340e-005	-1.865549e-004	-3.466722e-004
1.380000000000001e+000	1.875776e-005	-4.745132e-005	-1.875715e-005	-9.830424e-005	-1.909373e-004	-3.542409e-004
1.390000000000001e+000	1.937755e-005	-4.873658e-005	-1.937693e-005	-1.007491e-004	-1.953552e-004	-3.618571e-004
1.400000000000001e+000	2.000693e-005	-5.003663e-005	-2.000629e-005	-1.032177e-004	-1.998079e-004	-3.695199e-004
1.410000000000001e+000	2.064582e-005	-5.135136e-005	-2.064518e-005	-1.057099e-004	-2.042951e-004	-3.772284e-004
1.420000000000001e+000	2.129419e-005	-5.268070e-005	-2.129353e-005	-1.082254e-004	-2.088161e-004	-3.849817e-004
1.430000000000001e+000	2.195199e-005	-5.402457e-005	-2.195132e-005	-1.107639e-004	-2.133705e-004	-3.927790e-004
1.440000000000001e+000	2.261917e-005	-5.538288e-005	-2.261848e-005	-1.133252e-004	-2.179578e-004	-4.006194e-004
1.450000000000001e+000	2.329568e-005	-5.675555e-005	-2.329498e-005	-1.159091e-004	-2.225774e-004	-4.085021e-004
1.460000000000001e+000	2.398147e-005	-5.814250e-005	-2.398076e-005	-1.185153e-004	-2.272289e-004	-4.164261e-004
1.470000000000001e+000	2.467650e-005	-5.954363e-005	-2.467577e-005	-1.211436e-004	-2.319118e-004	-4.243908e-004
1.480000000000001e+000	2.538072e-005	-6.095887e-005	-2.537998e-005	-1.237938e-004	-2.366256e-004	-4.323953e-004
1.490000000000001e+000	2.609408e-005	-6.238811e-005	-2.609334e-005	-1.264655e-004	-2.413699e-004	-4.404389e-004
1.500000000000001e+000	2.681655e-005	-6.383128e-005	-2.681579e-005	-1.291587e-004	-2.461442e-004	-4.485208e-004
1.510000000000001e+000	2.754807e-005	-6.528830e-005	-2.754730e-005	-1.318731e-004	-2.509479e-004	-4.566402e-004
1.520000000000001e+000	2.828860e-005	-6.675905e-005	-2.828782e-005	-1.346083e-004	-2.557808e-004	-4.647964e-004
1.530000000000001e+000	2.903810e-005	-6.824347e-005	-2.903731e-005	-1.373642e-004	-2.606423e-004	-4.729887e-004
1.540000000000001e+000	2.979653e-005	-6.974144e-005	-2.979572e-005	-1.401406e-004	-2.655320e-004	-4.812164e-004
1.550000000000001e+000	3.056384e-005	-7.125290e-005	-3.056302e-005	-1.429372e-004	-2.704494e-004	-4.894787e-004
1.560000000000001e+000	3.133998e-005	-7.277773e-005	-3.133916e-005	-1.457538e-004	-2.753942e-004	-4.977750e-004
1.570000000000001e+000	3.212493e-005	-7.431586e-005	-3.212409e-005	-1.485902e-004	-2.803658e-004	-5.061046e-004
1.580000000000001e+000	3.291863e-005	-7.586717e-005	-3.291778e-005	-1.514461e-004	-2.853640e-004	-5.144668e-004
1.590000000000001e+000	3.372104e-005	-7.743160e-005	-3.372018e-005	-1.543213e-004	-2.903882e-004	-5.228611e-004
1.600000000000001e+000	3.453212e-005	-7.900903e-005	-3.453125e-005	-1.572156e-004	-2.954381e-004	-5.312867e-004
1.610000000000001e+000	3.535184e-005	-8.059938e-005	-3.535096e-005	-1.601289e-004	-3.005133e-004	-5.397430e-004
1.620000000000001e+000	3.618015e-005	-8.220254e-005	-3.617926e-005	-1.630607e-004	-3.056133e-004	-5.482295e-004
1.630000000000001e+000	3.701701e-005	-8.381843e-005	-3.701611e-005	-1.660110e-004	-3.107378e-004	-5.567455e-004
1.640000000000001e+000	3.786238e-005	-8.544695e-005	-3.786147e-005	-1.689795e-004	-3.158864e-004	-5.652903e-004
1.650000000000001e+000	3.871622e-005	-8.708800e-005	-3.871531e-005	-1.719661e-004	-3.210588e-004	-5.738636e-004
1.660000000000001e+000	3.957850e-005	-8.874148e-005	-3.957758e-005	-1.749704e-004	-3.262544e-004	-5.824646e-004
1.670000000000001e+000	4.044917e-005	-9.040731e-005	-4.044823e-005	-1.779923e-004	-3.314730e-004	-5.910927e-004
1.680000000000001e+000	4.132819e-005	-9.208538e-005	-4.132725e-005	-1.810317e-004	-3.367143e-004	-5.997476e-004
1.690000000000001e+000	4.221552e-005	-9.377560e-005	-4.221457e-005	-1.840881e-004	-3.419778e-004	-6.084285e-004
1.700000000000001e+000	4.311113e-005	-9.547787e-005	-4.311017e-005	-1.871616e-004	-3.472632e-004	-6.171350e-004
1.710000000000001e+000	4.401498e-005	-9.719210e-005	-4.401401e-005	-1.902518e-004	-3.525701e-004	-6.258666e-004
1.720000000000001e+000	4.492702e-005	-9.891819e-005	-4.492605e-005	-1.933585e-004	-3.578983e-004	-6.346227e-004
1.730000000000001e+000	4.584723e-005	-1.006560e-004	-4.584625e-005	-1.964816e-004	-3.632473e-004	-6.434028e-004
1.740000000000001e+000	4.677555e-005	-1.024056e-004	-4.677457e-005	-1.996209e-004	-3.686168e-004	-6.522065e-004
1.750000000000001e+000	4.771196e-005	-1.041666e-004	-4.771096e-005	-2.027762e-004	-3.740065e-004	-6.610331e-004
